
T1698 000:281 SEGGER J-Link V5.12f Log File (0001ms, 0257ms total)
T1698 000:281 DLL Compiled: May 17 2016 16:03:35 (0001ms, 0257ms total)
T1698 000:281 Logging started @ 2016-11-25 16:18 (0001ms, 0257ms total)
T1698 000:282 JLINK_SetWarnOutHandler(...) (0000ms, 0257ms total)
T1698 000:282 JLINK_OpenEx(...)
Firmware: J-Link OB-SAM3U128-V2-NordicSemi compiled Mar 15 2016 18:03:17
Hardware: V1.00
S/N: 682572936  returns O.K. (0261ms, 0518ms total)
T1698 000:543 JLINK_SetErrorOutHandler(...) (0000ms, 0518ms total)
T1698 000:543 JLINK_ExecCommand("ProjectFile = "C:\Users\Michael\Documents\none\nRF5_SDK_12.1.0_0d23e2a\examples\ble_peripheral\none\pca10040\s132\arm5_no_packs\JLinkSettings.ini"", ...)  returns 0x00 (0002ms, 0520ms total)
T1698 000:545 JLINK_ExecCommand("Device = nRF52832_xxAA", ...)Device "NRF52832_XXAA" selected.  returns 0x00 (0001ms, 0521ms total)
T1698 000:546 JLINK_ExecCommand("DisableConnectionTimeout", ...)  returns 0x01 (0000ms, 0521ms total)
T1698 000:546 JLINK_GetHardwareVersion()  returns 0x2710 (0000ms, 0521ms total)
T1698 000:546 JLINK_GetDLLVersion()  returns 51206 (0000ms, 0521ms total)
T1698 000:546 JLINK_GetFirmwareString(...) (0000ms, 0521ms total)
T1698 000:546 JLINK_GetDLLVersion()  returns 51206 (0000ms, 0521ms total)
T1698 000:546 JLINK_GetCompileDateTime() (0000ms, 0521ms total)
T1698 000:546 JLINK_GetFirmwareString(...) (0000ms, 0521ms total)
T1698 000:546 JLINK_GetHardwareVersion()  returns 0x2710 (0000ms, 0521ms total)
T1698 000:546 JLINK_TIF_Select(JLINKARM_TIF_SWD)  returns 0x00 (0001ms, 0522ms total)
T1698 000:547 JLINK_SetSpeed(5000) (0000ms, 0522ms total)
T1698 000:547 JLINK_GetId() >0x108 TIF>Found SWD-DP with ID 0x2BA01477 >0x0D TIF> >0x28 TIF> >0x0D TIF> >0x28 TIF> >0x0D TIF> >0x28 TIF> >0x0D TIF> >0x28 TIF> >0x35 TIF> >0x0D TIF> >0x28 TIF> >0x0D TIF> >0x28 TIF> >0x35 TIF> >0x35 TIF> >0x35 TIF> >0x0D TIF> >0x28 TIF> >0x0D TIF> >0x28 TIF> >0x0D TIF> >0x28 TIF> >0x35 TIF> >0x35 TIF> >0x0D TIF> >0x28 TIF> >0x35 TIF> >0x35 TIF>Found Cortex-M4 r0p1, Little endian. -- CPU_ReadMem(4 bytes @ 0xE000EDF0) -- CPU_ReadMem(4 bytes @ 0xE0002000)
FPUnit: 6 code (BP) slots and 2 literal slots -- CPU_ReadMem(4 bytes @ 0xE000EDFC) -- CPU_ReadMem(4 bytes @ 0xE0001000) -- CPU_WriteMem(4 bytes @ 0xE0001000) -- CPU_ReadMem(4 bytes @ 0xE000ED88) -- CPU_WriteMem(4 bytes @ 0xE000ED88) -- CPU_ReadMem(4 bytes @ 0xE000ED88) -- CPU_WriteMem(4 bytes @ 0xE000ED88)CoreSight components:ROMTbl 0 @ E00FF000 -- CPU_ReadMem(16 bytes @ 0xE00FF000) -- CPU_ReadMem(16 bytes @ 0xE000EFF0) -- CPU_ReadMem(16 bytes @ 0xE000EFE0)
ROMTbl 0 [0]: FFF0F000, CID: B105E00D, PID: 000BB00C SCS -- CPU_ReadMem(16 bytes @ 0xE0001FF0) -- CPU_ReadMem(16 bytes @ 0xE0001FE0)ROMTbl 0 [1]: FFF02000, CID: B105E00D, PID: 003BB002 DWT -- CPU_ReadMem(16 bytes @ 0xE0002FF0) -- CPU_ReadMem(16 bytes @ 0xE0002FE0)ROMTbl 0 [2]: FFF03000, CID: B105E00D, PID: 002BB003 FPB -- CPU_ReadMem(16 bytes @ 0xE0000FF0) -- CPU_ReadMem(16 bytes @ 0xE0000FE0)ROMTbl 0 [3]: FFF01000, CID: B105E00D, PID: 003BB001 ITM -- CPU_ReadMem(16 bytes @ 0xE00FF010)
 -- CPU_ReadMem(16 bytes @ 0xE0040FF0) -- CPU_ReadMem(16 bytes @ 0xE0040FE0)ROMTbl 0 [4]: FFF41000, CID: B105900D, PID: 000BB9A1 TPIU -- CPU_ReadMem(16 bytes @ 0xE0041FF0) -- CPU_ReadMem(16 bytes @ 0xE0041FE0)ROMTbl 0 [5]: FFF42000, CID: B105900D, PID: 000BB925 ETM >0x35 TIF>  returns 0x2BA01477 (0023ms, 0545ms total)
T1698 000:571 JLINK_GetDLLVersion()  returns 51206 (0000ms, 0545ms total)
T1698 000:571 JLINK_CORE_GetFound()  returns 0xE0000FF (0000ms, 0545ms total)
T1698 000:571 JLINK_GetDebugInfo(0x100) -- Value=0xE00FF000  returns 0x00 (0000ms, 0545ms total)
T1698 000:571 JLINK_GetDebugInfo(0x100) -- Value=0xE00FF000  returns 0x00 (0000ms, 0545ms total)
T1698 000:571 JLINK_GetDebugInfo(0x101) -- Value=0xE0041000  returns 0x00 (0000ms, 0545ms total)
T1698 000:571 JLINK_GetDebugInfo(0x102) -- Value=0x00000000  returns 0x00 (0000ms, 0545ms total)
T1698 000:571 JLINK_GetDebugInfo(0x103) -- Value=0xE0040000  returns 0x00 (0000ms, 0545ms total)
T1698 000:571 JLINK_GetDebugInfo(0x104) -- Value=0xE0000000  returns 0x00 (0000ms, 0545ms total)
T1698 000:571 JLINK_GetDebugInfo(0x105) -- Value=0xE0001000  returns 0x00 (0000ms, 0545ms total)
T1698 000:571 JLINK_GetDebugInfo(0x106) -- Value=0xE0002000  returns 0x00 (0000ms, 0545ms total)
T1698 000:571 JLINK_GetDebugInfo(0x107) -- Value=0xE000E000  returns 0x00 (0000ms, 0545ms total)
T1698 000:571 JLINK_GetDebugInfo(0x10C) -- Value=0xE000EDF0  returns 0x00 (0000ms, 0545ms total)
T1698 000:571 JLINK_ReadMemU32(0xE000EF40, 0x0001 Items, ...) -- CPU is running -- CPU_ReadMem(4 bytes @ 0xE000EF40) - Data: 21 00 11 10  returns 0x01 (0001ms, 0546ms total)
T1698 000:572 JLINK_ReadMemU32(0xE000EF44, 0x0001 Items, ...) -- CPU is running -- CPU_ReadMem(4 bytes @ 0xE000EF44) - Data: 11 00 00 11  returns 0x01 (0000ms, 0546ms total)
T1698 000:572 JLINK_ReadMemU32(0xE000ED00, 0x0001 Items, ...) -- CPU is running -- CPU_ReadMem(4 bytes @ 0xE000ED00) - Data: 41 C2 0F 41  returns 0x01 (0001ms, 0547ms total)
T1698 000:573 JLINK_SetResetType(JLINKARM_RESET_TYPE_NORMAL)  returns JLINKARM_RESET_TYPE_NORMAL (0000ms, 0547ms total)
T1698 000:573 JLINK_Reset() -- CPU is running -- CPU_WriteMem(4 bytes @ 0xE000EDF0) -- CPU is running -- CPU_WriteMem(4 bytes @ 0xE000EDFC) >0x35 TIF> -- CPU is running -- CPU_WriteMem(4 bytes @ 0xE000ED0C) -- CPU is running -- CPU_ReadMem(4 bytes @ 0xE000EDF0) -- CPU is running -- CPU_ReadMem(4 bytes @ 0xE000EDF0) -- CPU is running -- CPU_WriteMem(4 bytes @ 0xE000EDF0) -- CPU is running -- CPU_WriteMem(4 bytes @ 0xE000EDFC) -- CPU is running -- CPU_ReadMem(4 bytes @ 0xE000EDF0)
 -- CPU_WriteMem(4 bytes @ 0xE0002000) -- CPU_ReadMem(4 bytes @ 0xE000EDFC) -- CPU_ReadMem(4 bytes @ 0xE0001000) (0020ms, 0567ms total)
T1698 000:593 JLINK_ReadReg(R15 (PC))  returns 0x000008E4 (0000ms, 0567ms total)
T1698 000:593 JLINK_ReadReg(XPSR)  returns 0x01000000 (0000ms, 0567ms total)
T1698 000:593 JLINK_Halt()  returns 0x00 (0000ms, 0567ms total)
T1698 000:593 JLINK_IsHalted()  returns TRUE (0000ms, 0567ms total)
T1698 000:593 JLINK_ReadMemU32(0xE000EDF0, 0x0001 Items, ...) -- CPU_ReadMem(4 bytes @ 0xE000EDF0) - Data: 03 00 03 00  returns 0x01 (0001ms, 0568ms total)
T1698 000:594 JLINK_WriteU32(0xE000EDF0, 0xA05F0003) -- CPU_WriteMem(4 bytes @ 0xE000EDF0)  returns 0x00 (0001ms, 0569ms total)
T1698 000:595 JLINK_WriteU32(0xE000EDFC, 0x01000000) -- CPU_WriteMem(4 bytes @ 0xE000EDFC)  returns 0x00 (0000ms, 0569ms total)
T1698 000:595 JLINK_GetHWStatus(...)  returns 0x00 (0001ms, 0570ms total)
T1698 000:596 JLINK_GetNumBPUnits(Type = 0xFFFFFF00)  returns 0x06 (0000ms, 0570ms total)
T1698 000:596 JLINK_GetNumBPUnits(Type = 0xF0)  returns 0x2000 (0000ms, 0570ms total)
T1698 000:596 JLINK_GetNumWPUnits()  returns 0x04 (0000ms, 0570ms total)
T1698 000:596 JLINK_GetSpeed()  returns 0x3E8 (0000ms, 0570ms total)
T1698 000:596 JLINK_ReadMemU32(0xE000E004, 0x0001 Items, ...) -- CPU_ReadMem(4 bytes @ 0xE000E004) - Data: 01 00 00 00  returns 0x01 (0000ms, 0570ms total)
T1698 000:596 JLINK_ReadMemU32(0xE000E004, 0x0001 Items, ...) -- CPU_ReadMem(4 bytes @ 0xE000E004) - Data: 01 00 00 00  returns 0x01 (0001ms, 0571ms total)
T1698 000:597 JLINK_WriteMem(0xE0001000, 0x001C Bytes, ...) - Data: 01 00 00 00 00 00 00 00 00 00 00 00 00 00 00 00 ... -- CPU_WriteMem(28 bytes @ 0xE0001000)  returns 0x1C (0002ms, 0573ms total)
T1698 000:599 JLINK_ReadMem (0xE0001000, 0x001C Bytes, ...) -- CPU_ReadMem(28 bytes @ 0xE0001000) - Data: 01 00 00 40 00 00 00 00 00 00 00 00 00 00 00 00 ...  returns 0x00 (0000ms, 0573ms total)
T1698 000:599 JLINK_ReadReg(R15 (PC))  returns 0x000008E4 (0000ms, 0573ms total)
T1698 000:599 JLINK_ReadReg(XPSR)  returns 0x01000000 (0000ms, 0573ms total)
T1698 000:716 JLINK_SetResetType(JLINKARM_RESET_TYPE_NORMAL)  returns JLINKARM_RESET_TYPE_NORMAL (0000ms, 0574ms total)
T1698 000:716 JLINK_Reset() -- CPU_WriteMem(4 bytes @ 0xE000EDF0) -- CPU_WriteMem(4 bytes @ 0xE000EDFC) >0x35 TIF> -- CPU_WriteMem(4 bytes @ 0xE000ED0C) -- CPU_ReadMem(4 bytes @ 0xE000EDF0) -- CPU_ReadMem(4 bytes @ 0xE000EDF0) -- CPU_WriteMem(4 bytes @ 0xE000EDF0) -- CPU_WriteMem(4 bytes @ 0xE000EDFC) -- CPU is running -- CPU_ReadMem(4 bytes @ 0xE000EDF0) -- CPU_WriteMem(4 bytes @ 0xE0002000) -- CPU_ReadMem(4 bytes @ 0xE000EDFC) -- CPU_ReadMem(4 bytes @ 0xE0001000) (0023ms, 0597ms total)
T1698 000:739 JLINK_ReadReg(R15 (PC))  returns 0x000008E4 (0000ms, 0597ms total)
T1698 000:739 JLINK_ReadReg(XPSR)  returns 0x01000000 (0000ms, 0597ms total)
T1698 000:739 JLINK_ReadMem (0x000008E4, 0x003C Bytes, ...) -- CPU_ReadMem(128 bytes @ 0x000008C0) -- Updating C cache (128 bytes @ 0x000008C0) -- Read from C cache (60 bytes @ 0x000008E4) - Data: 06 4B 18 47 06 4A 10 60 01 68 81 F3 08 88 40 68 ...  returns 0x00 (0002ms, 0599ms total)
T1698 001:366 JLINK_ReadMem (0x00024C48, 0x003C Bytes, ...) -- CPU_ReadMem(128 bytes @ 0x00024C40) -- Updating C cache (128 bytes @ 0x00024C40) -- Read from C cache (60 bytes @ 0x00024C48) - Data: 4F F4 90 60 0C 4B 00 22 11 46 00 90 01 A8 02 F0 ...  returns 0x00 (0003ms, 0602ms total)
T1698 001:468 JLINK_ReadMem (0x00000000, 0x0286 Bytes, ...) -- CPU_ReadMem(704 bytes @ 0x00000000) -- Updating C cache (704 bytes @ 0x00000000) -- Read from C cache (646 bytes @ 0x00000000) - Data: 00 04 00 20 E5 08 00 00 79 05 00 00 C5 08 00 00 ...  returns 0x00 (0010ms, 0612ms total)
T22A4 001:490 JLINK_SetBPEx(Addr = 0x00024BD0, Type = 0xFFFFFFF2)  returns 0x00000001 (0000ms, 0612ms total)
T22A4 001:490 JLINK_SetBPEx(Addr = 0x00024C48, Type = 0xFFFFFFF2)  returns 0x00000002 (0000ms, 0612ms total)
T22A4 001:490 JLINK_Go() -- CPU_WriteMem(4 bytes @ 0xE0002000) -- CPU_WriteMem(4 bytes @ 0xE0002000) -- CPU_ReadMem(4 bytes @ 0xE0001000) -- CPU_WriteMem(4 bytes @ 0xE0002008) -- CPU_WriteMem(4 bytes @ 0xE000200C) -- CPU_WriteMem(4 bytes @ 0xE0002010) -- CPU_WriteMem(4 bytes @ 0xE0002014) -- CPU_WriteMem(4 bytes @ 0xE0002018) -- CPU_WriteMem(4 bytes @ 0xE000201C) -- CPU_WriteMem(4 bytes @ 0xE0001004) (0005ms, 0617ms total)
T22A4 001:596 JLINK_IsHalted()  returns TRUE (0006ms, 0623ms total)
T22A4 001:602 JLINK_Halt()  returns 0x00 (0000ms, 0617ms total)
T22A4 001:602 JLINK_IsHalted()  returns TRUE (0000ms, 0617ms total)
T22A4 001:602 JLINK_IsHalted()  returns TRUE (0000ms, 0617ms total)
T22A4 001:602 JLINK_IsHalted()  returns TRUE (0000ms, 0617ms total)
T22A4 001:602 JLINK_ReadReg(R15 (PC))  returns 0x00024BD0 (0000ms, 0617ms total)
T22A4 001:602 JLINK_ReadReg(XPSR)  returns 0x61000000 (0000ms, 0617ms total)
T22A4 001:602 JLINK_ClrBPEx(BPHandle = 0x00000001)  returns 0x00 (0000ms, 0617ms total)
T22A4 001:602 JLINK_ClrBPEx(BPHandle = 0x00000002)  returns 0x00 (0000ms, 0617ms total)
T22A4 001:602 JLINK_ReadMemU32(0xE000ED30, 0x0001 Items, ...) -- CPU_ReadMem(4 bytes @ 0xE000ED30) - Data: 02 00 00 00  returns 0x01 (0000ms, 0617ms total)
T22A4 001:602 JLINK_ReadMemU32(0xE0001028, 0x0001 Items, ...) -- CPU_ReadMem(4 bytes @ 0xE0001028) - Data: 00 00 00 00  returns 0x01 (0001ms, 0618ms total)
T22A4 001:603 JLINK_ReadMemU32(0xE0001038, 0x0001 Items, ...) -- CPU_ReadMem(4 bytes @ 0xE0001038) - Data: 00 02 00 00  returns 0x01 (0000ms, 0618ms total)
T22A4 001:603 JLINK_ReadMemU32(0xE0001048, 0x0001 Items, ...) -- CPU_ReadMem(4 bytes @ 0xE0001048) - Data: 00 00 00 00  returns 0x01 (0001ms, 0619ms total)
T22A4 001:604 JLINK_ReadMemU32(0xE0001058, 0x0001 Items, ...) -- CPU_ReadMem(4 bytes @ 0xE0001058) - Data: 00 00 00 00  returns 0x01 (0001ms, 0620ms total)
T22A4 001:605 JLINK_ReadReg(R0)  returns 0x00024BD1 (0000ms, 0620ms total)
T22A4 001:605 JLINK_ReadReg(R1)  returns 0x20005958 (0000ms, 0620ms total)
T22A4 001:605 JLINK_ReadReg(R2)  returns 0x00000000 (0000ms, 0620ms total)
T22A4 001:605 JLINK_ReadReg(R3)  returns 0x0001FAE1 (0000ms, 0620ms total)
T22A4 001:605 JLINK_ReadReg(R4)  returns 0x0002AAE0 (0000ms, 0620ms total)
T22A4 001:605 JLINK_ReadReg(R5)  returns 0x0002AAE0 (0000ms, 0620ms total)
T22A4 001:605 JLINK_ReadReg(R6)  returns 0x00000000 (0000ms, 0620ms total)
T22A4 001:605 JLINK_ReadReg(R7)  returns 0x00000000 (0000ms, 0620ms total)
T22A4 001:605 JLINK_ReadReg(R8)  returns 0x00000000 (0000ms, 0620ms total)
T22A4 001:605 JLINK_ReadReg(R9)  returns 0x00000000 (0000ms, 0620ms total)
T22A4 001:605 JLINK_ReadReg(R10)  returns 0x00000000 (0000ms, 0620ms total)
T22A4 001:605 JLINK_ReadReg(R11)  returns 0x00000000 (0000ms, 0620ms total)
T22A4 001:605 JLINK_ReadReg(R12)  returns 0x00000000 (0000ms, 0620ms total)
T22A4 001:605 JLINK_ReadReg(R13 (SP))  returns 0x20005958 (0000ms, 0620ms total)
T22A4 001:605 JLINK_ReadReg(R14)  returns 0x0001F4C5 (0000ms, 0620ms total)
T22A4 001:605 JLINK_ReadReg(R15 (PC))  returns 0x00024BD0 (0000ms, 0620ms total)
T22A4 001:605 JLINK_ReadReg(XPSR)  returns 0x61000000 (0000ms, 0620ms total)
T22A4 001:605 JLINK_ReadReg(MSP)  returns 0x20005958 (0000ms, 0620ms total)
T22A4 001:605 JLINK_ReadReg(PSP)  returns 0x00000000 (0000ms, 0620ms total)
T22A4 001:605 JLINK_ReadReg(CFBP)  returns 0x00000000 (0000ms, 0620ms total)
T22A4 001:605 JLINK_ReadReg(FPSCR)  returns 0x00000000 (0010ms, 0630ms total)
T22A4 001:615 JLINK_ReadReg(FPS0)  returns 0x00000000 (0000ms, 0630ms total)
T22A4 001:615 JLINK_ReadReg(FPS1)  returns 0x00000000 (0000ms, 0630ms total)
T22A4 001:615 JLINK_ReadReg(FPS2)  returns 0x00000000 (0000ms, 0630ms total)
T22A4 001:615 JLINK_ReadReg(FPS3)  returns 0x00000000 (0000ms, 0630ms total)
T22A4 001:615 JLINK_ReadReg(FPS4)  returns 0x00000000 (0000ms, 0630ms total)
T22A4 001:615 JLINK_ReadReg(FPS5)  returns 0x00000000 (0000ms, 0630ms total)
T22A4 001:615 JLINK_ReadReg(FPS6)  returns 0x00000000 (0000ms, 0630ms total)
T22A4 001:615 JLINK_ReadReg(FPS7)  returns 0x00000000 (0000ms, 0630ms total)
T22A4 001:615 JLINK_ReadReg(FPS8)  returns 0x00000000 (0000ms, 0630ms total)
T22A4 001:615 JLINK_ReadReg(FPS9)  returns 0x00000000 (0000ms, 0630ms total)
T22A4 001:615 JLINK_ReadReg(FPS10)  returns 0x00000000 (0000ms, 0630ms total)
T22A4 001:615 JLINK_ReadReg(FPS11)  returns 0x00000000 (0000ms, 0630ms total)
T22A4 001:615 JLINK_ReadReg(FPS12)  returns 0x00000000 (0000ms, 0630ms total)
T22A4 001:615 JLINK_ReadReg(FPS13)  returns 0x00000000 (0000ms, 0630ms total)
T22A4 001:615 JLINK_ReadReg(FPS14)  returns 0x00000000 (0000ms, 0630ms total)
T22A4 001:615 JLINK_ReadReg(FPS15)  returns 0x00000000 (0000ms, 0630ms total)
T22A4 001:615 JLINK_ReadReg(FPS16)  returns 0x00000000 (0000ms, 0630ms total)
T22A4 001:615 JLINK_ReadReg(FPS17)  returns 0x00000000 (0000ms, 0630ms total)
T22A4 001:615 JLINK_ReadReg(FPS18)  returns 0x00000000 (0000ms, 0630ms total)
T22A4 001:615 JLINK_ReadReg(FPS19)  returns 0x00000000 (0000ms, 0630ms total)
T22A4 001:615 JLINK_ReadReg(FPS20)  returns 0x00000000 (0000ms, 0630ms total)
T22A4 001:615 JLINK_ReadReg(FPS21)  returns 0x00000000 (0000ms, 0630ms total)
T22A4 001:615 JLINK_ReadReg(FPS22)  returns 0x00000000 (0000ms, 0630ms total)
T22A4 001:615 JLINK_ReadReg(FPS23)  returns 0x00000000 (0000ms, 0630ms total)
T22A4 001:615 JLINK_ReadReg(FPS24)  returns 0x00000000 (0000ms, 0630ms total)
T22A4 001:615 JLINK_ReadReg(FPS25)  returns 0x00000000 (0000ms, 0630ms total)
T22A4 001:615 JLINK_ReadReg(FPS26)  returns 0x00000000 (0000ms, 0630ms total)
T22A4 001:615 JLINK_ReadReg(FPS27)  returns 0x00000000 (0000ms, 0630ms total)
T22A4 001:615 JLINK_ReadReg(FPS28)  returns 0x00000000 (0000ms, 0630ms total)
T22A4 001:615 JLINK_ReadReg(FPS29)  returns 0x00000000 (0000ms, 0630ms total)
T22A4 001:615 JLINK_ReadReg(FPS30)  returns 0x00000000 (0000ms, 0630ms total)
T22A4 001:615 JLINK_ReadReg(FPS31)  returns 0x00000000 (0000ms, 0630ms total)
T1698 001:616 JLINK_ReadMem (0x20005954, 0x0001 Bytes, ...) -- CPU_ReadMem(64 bytes @ 0x20005940) -- Updating C cache (64 bytes @ 0x20005940) -- Read from C cache (1 bytes @ 0x20005954) - Data: 00  returns 0x00 (0001ms, 0631ms total)
T1698 001:617 JLINK_ReadMem (0x00000000, 0x0004 Bytes, ...) -- CPU_ReadMem(64 bytes @ 0x00000000) -- Updating C cache (64 bytes @ 0x00000000) -- Read from C cache (4 bytes @ 0x00000000) - Data: 00 04 00 20  returns 0x00 (0002ms, 0633ms total)
T1698 001:619 JLINK_ReadMem (0x200054D4, 0x0020 Bytes, ...) -- CPU_ReadMem(64 bytes @ 0x200054C0) -- Updating C cache (64 bytes @ 0x200054C0) -- Read from C cache (32 bytes @ 0x200054D4) - Data: 00 00 00 00 00 00 00 00 00 00 00 00 00 00 00 00 ...  returns 0x00 (0000ms, 0633ms total)
T1698 001:620 JLINK_ReadMemU32(0xE0001004, 0x0001 Items, ...) -- CPU_ReadMem(4 bytes @ 0xE0001004) - Data: CE A4 00 00  returns 0x01 (0001ms, 0634ms total)
T1698 001:622 JLINK_ReadMem (0x200054D4, 0x0286 Bytes, ...) -- CPU_ReadMem(640 bytes @ 0x20005500) -- Updating C cache (640 bytes @ 0x20005500) -- Read from C cache (646 bytes @ 0x200054D4) - Data: 00 00 00 00 00 00 00 00 00 00 00 00 00 00 00 00 ...  returns 0x00 (0009ms, 0643ms total)
T1698 001:635 JLINK_ReadMem (0x00024AD0, 0x003C Bytes, ...) -- CPU_ReadMem(128 bytes @ 0x00024AC0) -- Updating C cache (128 bytes @ 0x00024AC0) -- Read from C cache (60 bytes @ 0x00024AD0) - Data: 40 1C 0B 49 08 70 00 20 0C 4B 0E 22 09 49 00 90 ...  returns 0x00 (0003ms, 0646ms total)
T1698 001:638 JLINK_ReadMem (0x00024B14, 0x003C Bytes, ...) -- CPU_ReadMem(64 bytes @ 0x00024B40) -- Updating C cache (64 bytes @ 0x00024B40) -- Read from C cache (60 bytes @ 0x00024B14) - Data: 1F B5 12 4B 0F CB 8D E8 0F 00 4F F0 80 50 02 90 ...  returns 0x00 (0001ms, 0647ms total)
T1698 001:639 JLINK_ReadMem (0x00024B50, 0x003C Bytes, ...) -- CPU_ReadMem(64 bytes @ 0x00024B80) -- Updating C cache (64 bytes @ 0x00024B80) -- Read from C cache (60 bytes @ 0x00024B50) - Data: 24 B1 00 BF 20 46 FB F7 4D FA 00 BF 00 BF 1F BD ...  returns 0x00 (0002ms, 0649ms total)
T1698 001:641 JLINK_ReadMem (0x00024B8C, 0x003C Bytes, ...) -- CPU_ReadMem(64 bytes @ 0x00024BC0) -- Updating C cache (64 bytes @ 0x00024BC0) -- Read from C cache (60 bytes @ 0x00024B8C) - Data: FB F7 32 FA 00 BF 00 BF 0C 4A 01 21 0C 48 FB F7 ...  returns 0x00 (0001ms, 0650ms total)
T1698 001:642 JLINK_ReadMem (0x00024BCE, 0x0002 Bytes, ...) -- Read from C cache (2 bytes @ 0x00024BCE) - Data: 02 00  returns 0x00 (0000ms, 0650ms total)
T1698 001:642 JLINK_ReadMem (0x00024BD0, 0x0030 Bytes, ...) -- Read from C cache (48 bytes @ 0x00024BD0) - Data: AD F5 91 6D 00 24 00 BF 25 46 25 B1 00 BF 28 46 ...  returns 0x00 (0000ms, 0650ms total)
T1698 001:642 JLINK_ReadMem (0x00024C00, 0x000C Bytes, ...) -- CPU_ReadMem(64 bytes @ 0x00024C00) -- Updating C cache (64 bytes @ 0x00024C00) -- Read from C cache (12 bytes @ 0x00024C00) - Data: FE F7 D2 FB FB F7 F4 F8 03 F0 18 FF  returns 0x00 (0001ms, 0651ms total)
T22A4 003:790 JLINK_SetBPEx(Addr = 0x00024C48, Type = 0xFFFFFFF2)  returns 0x00000003 (0000ms, 0651ms total)
T22A4 003:790 JLINK_Go() -- CPU_WriteMem(4 bytes @ 0xE0002000) -- CPU_ReadMem(4 bytes @ 0xE0001000) -- CPU_WriteMem(4 bytes @ 0xE0002008) -- CPU_WriteMem(4 bytes @ 0xE000200C) (0003ms, 0654ms total)
T22A4 003:894 JLINK_IsHalted()  returns FALSE (0000ms, 0654ms total)
T22A4 003:995 JLINK_IsHalted()  returns FALSE (0000ms, 0654ms total)
T22A4 004:096 JLINK_IsHalted()  returns FALSE (0001ms, 0655ms total)
T22A4 004:197 JLINK_IsHalted()  returns FALSE (0001ms, 0655ms total)
T22A4 004:298 JLINK_IsHalted()  returns TRUE (0007ms, 0661ms total)
T22A4 004:305 JLINK_Halt()  returns 0x00 (0000ms, 0654ms total)
T22A4 004:305 JLINK_IsHalted()  returns TRUE (0000ms, 0654ms total)
T22A4 004:305 JLINK_IsHalted()  returns TRUE (0000ms, 0654ms total)
T22A4 004:305 JLINK_IsHalted()  returns TRUE (0000ms, 0654ms total)
T22A4 004:305 JLINK_ReadReg(R15 (PC))  returns 0x00024C48 (0000ms, 0654ms total)
T22A4 004:305 JLINK_ReadReg(XPSR)  returns 0x61000000 (0000ms, 0654ms total)
T22A4 004:305 JLINK_ClrBPEx(BPHandle = 0x00000003)  returns 0x00 (0000ms, 0654ms total)
T22A4 004:305 JLINK_ReadMemU32(0xE000ED30, 0x0001 Items, ...) -- CPU_ReadMem(4 bytes @ 0xE000ED30) - Data: 02 00 00 00  returns 0x01 (0001ms, 0655ms total)
T22A4 004:306 JLINK_ReadMemU32(0xE0001028, 0x0001 Items, ...) -- CPU_ReadMem(4 bytes @ 0xE0001028) - Data: 00 00 00 00  returns 0x01 (0000ms, 0655ms total)
T22A4 004:306 JLINK_ReadMemU32(0xE0001038, 0x0001 Items, ...) -- CPU_ReadMem(4 bytes @ 0xE0001038) - Data: 00 02 00 00  returns 0x01 (0001ms, 0656ms total)
T22A4 004:307 JLINK_ReadMemU32(0xE0001048, 0x0001 Items, ...) -- CPU_ReadMem(4 bytes @ 0xE0001048) - Data: 00 00 00 00  returns 0x01 (0001ms, 0657ms total)
T22A4 004:308 JLINK_ReadMemU32(0xE0001058, 0x0001 Items, ...) -- CPU_ReadMem(4 bytes @ 0xE0001058) - Data: 00 00 00 00  returns 0x01 (0000ms, 0657ms total)
T22A4 004:308 JLINK_ReadReg(R0)  returns 0x00000000 (0000ms, 0657ms total)
T22A4 004:308 JLINK_ReadReg(R1)  returns 0x00000004 (0000ms, 0657ms total)
T22A4 004:308 JLINK_ReadReg(R2)  returns 0x00000000 (0000ms, 0657ms total)
T22A4 004:309 JLINK_ReadReg(R3)  returns 0x00000000 (0000ms, 0658ms total)
T22A4 004:309 JLINK_ReadReg(R4)  returns 0x00000000 (0000ms, 0658ms total)
T22A4 004:309 JLINK_ReadReg(R5)  returns 0x00000000 (0000ms, 0658ms total)
T22A4 004:309 JLINK_ReadReg(R6)  returns 0x200027E0 (0000ms, 0658ms total)
T22A4 004:309 JLINK_ReadReg(R7)  returns 0x00000000 (0000ms, 0658ms total)
T22A4 004:309 JLINK_ReadReg(R8)  returns 0x00000000 (0000ms, 0658ms total)
T22A4 004:309 JLINK_ReadReg(R9)  returns 0x00000000 (0000ms, 0658ms total)
T22A4 004:309 JLINK_ReadReg(R10)  returns 0x00000000 (0000ms, 0658ms total)
T22A4 004:309 JLINK_ReadReg(R11)  returns 0x00000000 (0000ms, 0658ms total)
T22A4 004:309 JLINK_ReadReg(R12)  returns 0x20003400 (0000ms, 0658ms total)
T22A4 004:309 JLINK_ReadReg(R13 (SP))  returns 0x200054D0 (0000ms, 0658ms total)
T22A4 004:309 JLINK_ReadReg(R14)  returns 0x00029311 (0000ms, 0658ms total)
T22A4 004:309 JLINK_ReadReg(R15 (PC))  returns 0x00024C48 (0000ms, 0658ms total)
T22A4 004:309 JLINK_ReadReg(XPSR)  returns 0x61000000 (0000ms, 0658ms total)
T22A4 004:309 JLINK_ReadReg(MSP)  returns 0x200054D0 (0000ms, 0658ms total)
T22A4 004:309 JLINK_ReadReg(PSP)  returns 0x00000000 (0000ms, 0658ms total)
T22A4 004:309 JLINK_ReadReg(CFBP)  returns 0x00000000 (0000ms, 0658ms total)
T22A4 004:309 JLINK_ReadReg(FPSCR)  returns 0x00000000 (0010ms, 0668ms total)
T22A4 004:319 JLINK_ReadReg(FPS0)  returns 0x00000000 (0000ms, 0668ms total)
T22A4 004:319 JLINK_ReadReg(FPS1)  returns 0x00000000 (0000ms, 0668ms total)
T22A4 004:319 JLINK_ReadReg(FPS2)  returns 0x00000000 (0000ms, 0668ms total)
T22A4 004:319 JLINK_ReadReg(FPS3)  returns 0x00000000 (0000ms, 0668ms total)
T22A4 004:319 JLINK_ReadReg(FPS4)  returns 0x00000000 (0000ms, 0668ms total)
T22A4 004:319 JLINK_ReadReg(FPS5)  returns 0x00000000 (0000ms, 0668ms total)
T22A4 004:319 JLINK_ReadReg(FPS6)  returns 0x00000000 (0000ms, 0668ms total)
T22A4 004:319 JLINK_ReadReg(FPS7)  returns 0x00000000 (0000ms, 0668ms total)
T22A4 004:319 JLINK_ReadReg(FPS8)  returns 0x00000000 (0001ms, 0669ms total)
T22A4 004:320 JLINK_ReadReg(FPS9)  returns 0x00000000 (0000ms, 0669ms total)
T22A4 004:320 JLINK_ReadReg(FPS10)  returns 0x00000000 (0000ms, 0669ms total)
T22A4 004:320 JLINK_ReadReg(FPS11)  returns 0x00000000 (0000ms, 0669ms total)
T22A4 004:320 JLINK_ReadReg(FPS12)  returns 0x00000000 (0000ms, 0669ms total)
T22A4 004:320 JLINK_ReadReg(FPS13)  returns 0x00000000 (0000ms, 0669ms total)
T22A4 004:320 JLINK_ReadReg(FPS14)  returns 0x00000000 (0000ms, 0669ms total)
T22A4 004:320 JLINK_ReadReg(FPS15)  returns 0x00000000 (0000ms, 0669ms total)
T22A4 004:320 JLINK_ReadReg(FPS16)  returns 0x00000000 (0000ms, 0669ms total)
T22A4 004:320 JLINK_ReadReg(FPS17)  returns 0x00000000 (0000ms, 0669ms total)
T22A4 004:320 JLINK_ReadReg(FPS18)  returns 0x00000000 (0000ms, 0669ms total)
T22A4 004:320 JLINK_ReadReg(FPS19)  returns 0x00000000 (0000ms, 0669ms total)
T22A4 004:320 JLINK_ReadReg(FPS20)  returns 0x00000000 (0000ms, 0669ms total)
T22A4 004:320 JLINK_ReadReg(FPS21)  returns 0x00000000 (0000ms, 0669ms total)
T22A4 004:320 JLINK_ReadReg(FPS22)  returns 0x00000000 (0000ms, 0669ms total)
T22A4 004:320 JLINK_ReadReg(FPS23)  returns 0x00000000 (0000ms, 0669ms total)
T22A4 004:320 JLINK_ReadReg(FPS24)  returns 0x00000000 (0000ms, 0669ms total)
T22A4 004:320 JLINK_ReadReg(FPS25)  returns 0x00000000 (0000ms, 0669ms total)
T22A4 004:320 JLINK_ReadReg(FPS26)  returns 0x00000000 (0000ms, 0669ms total)
T22A4 004:320 JLINK_ReadReg(FPS27)  returns 0x00000000 (0000ms, 0669ms total)
T22A4 004:320 JLINK_ReadReg(FPS28)  returns 0x00000000 (0000ms, 0669ms total)
T22A4 004:320 JLINK_ReadReg(FPS29)  returns 0x00000000 (0000ms, 0669ms total)
T22A4 004:320 JLINK_ReadReg(FPS30)  returns 0x00000000 (0000ms, 0669ms total)
T22A4 004:321 JLINK_ReadReg(FPS31)  returns 0x00000000 (0000ms, 0670ms total)
T1698 004:321 JLINK_ReadMem (0x20005954, 0x0001 Bytes, ...) -- CPU_ReadMem(64 bytes @ 0x20005940) -- Updating C cache (64 bytes @ 0x20005940) -- Read from C cache (1 bytes @ 0x20005954) - Data: 00  returns 0x00 (0002ms, 0672ms total)
T1698 004:323 JLINK_ReadMem (0x00000000, 0x0001 Bytes, ...) -- CPU_ReadMem(64 bytes @ 0x00000000) -- Updating C cache (64 bytes @ 0x00000000) -- Read from C cache (1 bytes @ 0x00000000) - Data: 00  returns 0x00 (0002ms, 0674ms total)
T1698 004:325 JLINK_ReadMem (0x200054D4, 0x0020 Bytes, ...) -- CPU_ReadMem(64 bytes @ 0x200054C0) -- Updating C cache (64 bytes @ 0x200054C0) -- Read from C cache (32 bytes @ 0x200054D4) - Data: 00 00 00 00 00 00 00 00 00 00 00 00 00 00 00 00 ...  returns 0x00 (0001ms, 0675ms total)
T1698 004:326 JLINK_ReadMem (0x00000000, 0x0004 Bytes, ...) -- Read from C cache (4 bytes @ 0x00000000) - Data: 00 04 00 20  returns 0x00 (0000ms, 0675ms total)
T1698 004:326 JLINK_ReadMemU32(0xE0001004, 0x0001 Items, ...) -- CPU_ReadMem(4 bytes @ 0xE0001004) - Data: 58 92 C8 01  returns 0x01 (0000ms, 0675ms total)
T1698 004:328 JLINK_ReadMem (0x200054D4, 0x0286 Bytes, ...) -- CPU_ReadMem(640 bytes @ 0x20005500) -- Updating C cache (640 bytes @ 0x20005500) -- Read from C cache (646 bytes @ 0x200054D4) - Data: 00 00 00 00 00 00 00 00 00 00 00 00 00 00 00 00 ...  returns 0x00 (0010ms, 0685ms total)
T1698 004:346 JLINK_ReadMem (0x00024C44, 0x003C Bytes, ...) -- CPU_ReadMem(64 bytes @ 0x00024C40) -- Updating C cache (64 bytes @ 0x00024C40) -- Read from C cache (60 bytes @ 0x00024C44) - Data: FF F7 9C FE 4F F4 90 60 0C 4B 00 22 11 46 00 90 ...  returns 0x00 (0002ms, 0687ms total)
T22A4 005:642 JLINK_Step() -- Read from C cache (2 bytes @ 0x00024C48) -- CPU_ReadMem(4 bytes @ 0xE000ED18) -- CPU_WriteMem(4 bytes @ 0xE000ED18) -- CPU_ReadMem(4 bytes @ 0xE000ED18) -- CPU_WriteMem(4 bytes @ 0xE000ED18) -- Read from C cache (2 bytes @ 0x00024C4A) -- Simulated  returns 0x00 (0003ms, 0690ms total)
T22A4 005:645 JLINK_ReadReg(R15 (PC))  returns 0x00024C4C (0000ms, 0690ms total)
T22A4 005:645 JLINK_ReadReg(XPSR)  returns 0x61000000 (0000ms, 0690ms total)
T22A4 005:645 JLINK_SetBPEx(Addr = 0x00024C48, Type = 0xFFFFFFF2)  returns 0x00000004 (0000ms, 0690ms total)
T22A4 005:645 JLINK_Go() -- CPU_WriteMem(4 bytes @ 0xE0002000) -- CPU_ReadMem(4 bytes @ 0xE0001000) -- CPU_WriteMem(4 bytes @ 0xE0001004) (0003ms, 0693ms total)
T22A4 005:748 JLINK_IsHalted()  returns FALSE (0000ms, 0693ms total)
T22A4 005:849 JLINK_IsHalted()  returns FALSE (0000ms, 0693ms total)
T22A4 005:950 JLINK_IsHalted()  returns TRUE (0006ms, 0699ms total)
T22A4 005:956 JLINK_Halt()  returns 0x00 (0000ms, 0693ms total)
T22A4 005:956 JLINK_IsHalted()  returns TRUE (0000ms, 0693ms total)
T22A4 005:956 JLINK_IsHalted()  returns TRUE (0000ms, 0693ms total)
T22A4 005:956 JLINK_IsHalted()  returns TRUE (0001ms, 0694ms total)
T22A4 005:957 JLINK_ReadReg(R15 (PC))  returns 0x00024C48 (0000ms, 0693ms total)
T22A4 005:957 JLINK_ReadReg(XPSR)  returns 0x61000000 (0000ms, 0693ms total)
T22A4 005:957 JLINK_ClrBPEx(BPHandle = 0x00000004)  returns 0x00 (0000ms, 0693ms total)
T22A4 005:957 JLINK_ReadMemU32(0xE000ED30, 0x0001 Items, ...) -- CPU_ReadMem(4 bytes @ 0xE000ED30) - Data: 02 00 00 00  returns 0x01 (0000ms, 0693ms total)
T22A4 005:957 JLINK_ReadMemU32(0xE0001028, 0x0001 Items, ...) -- CPU_ReadMem(4 bytes @ 0xE0001028) - Data: 00 00 00 00  returns 0x01 (0001ms, 0694ms total)
T22A4 005:958 JLINK_ReadMemU32(0xE0001038, 0x0001 Items, ...) -- CPU_ReadMem(4 bytes @ 0xE0001038) - Data: 00 02 00 00  returns 0x01 (0001ms, 0695ms total)
T22A4 005:959 JLINK_ReadMemU32(0xE0001048, 0x0001 Items, ...) -- CPU_ReadMem(4 bytes @ 0xE0001048) - Data: 00 00 00 00  returns 0x01 (0000ms, 0695ms total)
T22A4 005:959 JLINK_ReadMemU32(0xE0001058, 0x0001 Items, ...) -- CPU_ReadMem(4 bytes @ 0xE0001058) - Data: 00 00 00 00  returns 0x01 (0001ms, 0696ms total)
T22A4 005:960 JLINK_ReadReg(R0)  returns 0x00000000 (0000ms, 0696ms total)
T22A4 005:960 JLINK_ReadReg(R1)  returns 0x00000004 (0000ms, 0696ms total)
T22A4 005:960 JLINK_ReadReg(R2)  returns 0x00000000 (0000ms, 0696ms total)
T22A4 005:960 JLINK_ReadReg(R3)  returns 0x00000000 (0000ms, 0696ms total)
T22A4 005:960 JLINK_ReadReg(R4)  returns 0x00000000 (0000ms, 0696ms total)
T22A4 005:960 JLINK_ReadReg(R5)  returns 0x00000000 (0000ms, 0696ms total)
T22A4 005:960 JLINK_ReadReg(R6)  returns 0x200027E0 (0000ms, 0696ms total)
T22A4 005:960 JLINK_ReadReg(R7)  returns 0x00000000 (0000ms, 0696ms total)
T22A4 005:960 JLINK_ReadReg(R8)  returns 0x00000000 (0000ms, 0696ms total)
T22A4 005:960 JLINK_ReadReg(R9)  returns 0x00000000 (0000ms, 0696ms total)
T22A4 005:960 JLINK_ReadReg(R10)  returns 0x00000000 (0000ms, 0696ms total)
T22A4 005:960 JLINK_ReadReg(R11)  returns 0x00000000 (0000ms, 0696ms total)
T22A4 005:960 JLINK_ReadReg(R12)  returns 0x20003400 (0000ms, 0696ms total)
T22A4 005:960 JLINK_ReadReg(R13 (SP))  returns 0x200054D0 (0000ms, 0696ms total)
T22A4 005:960 JLINK_ReadReg(R14)  returns 0x00029311 (0000ms, 0696ms total)
T22A4 005:960 JLINK_ReadReg(R15 (PC))  returns 0x00024C48 (0000ms, 0696ms total)
T22A4 005:961 JLINK_ReadReg(XPSR)  returns 0x61000000 (0000ms, 0696ms total)
T22A4 005:961 JLINK_ReadReg(MSP)  returns 0x200054D0 (0000ms, 0696ms total)
T22A4 005:961 JLINK_ReadReg(PSP)  returns 0x00000000 (0000ms, 0696ms total)
T22A4 005:961 JLINK_ReadReg(CFBP)  returns 0x00000000 (0000ms, 0696ms total)
T22A4 005:961 JLINK_ReadReg(FPSCR)  returns 0x00000000 (0010ms, 0706ms total)
T22A4 005:971 JLINK_ReadReg(FPS0)  returns 0x00000000 (0000ms, 0706ms total)
T22A4 005:971 JLINK_ReadReg(FPS1)  returns 0x00000000 (0000ms, 0706ms total)
T22A4 005:971 JLINK_ReadReg(FPS2)  returns 0x00000000 (0000ms, 0706ms total)
T22A4 005:971 JLINK_ReadReg(FPS3)  returns 0x00000000 (0000ms, 0706ms total)
T22A4 005:971 JLINK_ReadReg(FPS4)  returns 0x00000000 (0000ms, 0706ms total)
T22A4 005:971 JLINK_ReadReg(FPS5)  returns 0x00000000 (0000ms, 0706ms total)
T22A4 005:971 JLINK_ReadReg(FPS6)  returns 0x00000000 (0000ms, 0706ms total)
T22A4 005:971 JLINK_ReadReg(FPS7)  returns 0x00000000 (0000ms, 0706ms total)
T22A4 005:971 JLINK_ReadReg(FPS8)  returns 0x00000000 (0000ms, 0706ms total)
T22A4 005:971 JLINK_ReadReg(FPS9)  returns 0x00000000 (0000ms, 0706ms total)
T22A4 005:971 JLINK_ReadReg(FPS10)  returns 0x00000000 (0000ms, 0706ms total)
T22A4 005:971 JLINK_ReadReg(FPS11)  returns 0x00000000 (0000ms, 0706ms total)
T22A4 005:971 JLINK_ReadReg(FPS12)  returns 0x00000000 (0000ms, 0706ms total)
T22A4 005:971 JLINK_ReadReg(FPS13)  returns 0x00000000 (0000ms, 0706ms total)
T22A4 005:971 JLINK_ReadReg(FPS14)  returns 0x00000000 (0000ms, 0706ms total)
T22A4 005:971 JLINK_ReadReg(FPS15)  returns 0x00000000 (0000ms, 0706ms total)
T22A4 005:971 JLINK_ReadReg(FPS16)  returns 0x00000000 (0000ms, 0706ms total)
T22A4 005:971 JLINK_ReadReg(FPS17)  returns 0x00000000 (0000ms, 0706ms total)
T22A4 005:971 JLINK_ReadReg(FPS18)  returns 0x00000000 (0000ms, 0706ms total)
T22A4 005:971 JLINK_ReadReg(FPS19)  returns 0x00000000 (0000ms, 0706ms total)
T22A4 005:971 JLINK_ReadReg(FPS20)  returns 0x00000000 (0000ms, 0706ms total)
T22A4 005:971 JLINK_ReadReg(FPS21)  returns 0x00000000 (0001ms, 0707ms total)
T22A4 005:972 JLINK_ReadReg(FPS22)  returns 0x00000000 (0000ms, 0707ms total)
T22A4 005:972 JLINK_ReadReg(FPS23)  returns 0x00000000 (0000ms, 0707ms total)
T22A4 005:972 JLINK_ReadReg(FPS24)  returns 0x00000000 (0000ms, 0707ms total)
T22A4 005:972 JLINK_ReadReg(FPS25)  returns 0x00000000 (0000ms, 0707ms total)
T22A4 005:972 JLINK_ReadReg(FPS26)  returns 0x00000000 (0000ms, 0707ms total)
T22A4 005:972 JLINK_ReadReg(FPS27)  returns 0x00000000 (0000ms, 0707ms total)
T22A4 005:972 JLINK_ReadReg(FPS28)  returns 0x00000000 (0000ms, 0707ms total)
T22A4 005:972 JLINK_ReadReg(FPS29)  returns 0x00000000 (0000ms, 0707ms total)
T22A4 005:972 JLINK_ReadReg(FPS30)  returns 0x00000000 (0000ms, 0707ms total)
T22A4 005:972 JLINK_ReadReg(FPS31)  returns 0x00000000 (0000ms, 0707ms total)
T1698 005:973 JLINK_ReadMem (0x20005954, 0x0001 Bytes, ...) -- CPU_ReadMem(64 bytes @ 0x20005940) -- Updating C cache (64 bytes @ 0x20005940) -- Read from C cache (1 bytes @ 0x20005954) - Data: 00  returns 0x00 (0001ms, 0708ms total)
T1698 005:974 JLINK_ReadMem (0x00000000, 0x0001 Bytes, ...) -- CPU_ReadMem(64 bytes @ 0x00000000) -- Updating C cache (64 bytes @ 0x00000000) -- Read from C cache (1 bytes @ 0x00000000) - Data: 00  returns 0x00 (0002ms, 0710ms total)
T1698 005:976 JLINK_ReadMem (0x200054D4, 0x0020 Bytes, ...) -- CPU_ReadMem(64 bytes @ 0x200054C0) -- Updating C cache (64 bytes @ 0x200054C0) -- Read from C cache (32 bytes @ 0x200054D4) - Data: 00 00 00 00 00 00 00 00 00 00 00 00 00 00 00 00 ...  returns 0x00 (0002ms, 0712ms total)
T1698 005:978 JLINK_ReadMem (0x00000000, 0x0004 Bytes, ...) -- Read from C cache (4 bytes @ 0x00000000) - Data: 00 04 00 20  returns 0x00 (0000ms, 0712ms total)
T1698 005:978 JLINK_ReadMemU32(0xE0001004, 0x0001 Items, ...) -- CPU_ReadMem(4 bytes @ 0xE0001004) - Data: BA CF BD 02  returns 0x01 (0000ms, 0712ms total)
T1698 005:980 JLINK_ReadMem (0x200054D4, 0x0286 Bytes, ...) -- CPU_ReadMem(640 bytes @ 0x20005500) -- Updating C cache (640 bytes @ 0x20005500) -- Read from C cache (646 bytes @ 0x200054D4) - Data: 00 00 00 00 00 00 00 00 00 00 00 00 00 00 00 00 ...  returns 0x00 (0009ms, 0721ms total)
T22A4 007:556 JLINK_Step() -- CPU_ReadMem(64 bytes @ 0x00024C40) -- Updating C cache (64 bytes @ 0x00024C40) -- Read from C cache (2 bytes @ 0x00024C48) -- Read from C cache (2 bytes @ 0x00024C4A) -- Simulated  returns 0x00 (0002ms, 0723ms total)
T22A4 007:558 JLINK_ReadReg(R15 (PC))  returns 0x00024C4C (0000ms, 0723ms total)
T22A4 007:558 JLINK_ReadReg(XPSR)  returns 0x61000000 (0000ms, 0723ms total)
T22A4 007:558 JLINK_SetBPEx(Addr = 0x00024C48, Type = 0xFFFFFFF2)  returns 0x00000005 (0000ms, 0723ms total)
T22A4 007:558 JLINK_Go() -- CPU_WriteMem(4 bytes @ 0xE0002000) -- CPU_ReadMem(4 bytes @ 0xE0001000) -- CPU_WriteMem(4 bytes @ 0xE0001004) (0003ms, 0726ms total)
T22A4 007:662 JLINK_IsHalted()  returns FALSE (0001ms, 0727ms total)
T22A4 007:764 JLINK_IsHalted()  returns FALSE (0000ms, 0726ms total)
T22A4 007:864 JLINK_IsHalted()  returns TRUE (0006ms, 0732ms total)
T22A4 007:870 JLINK_Halt()  returns 0x00 (0000ms, 0726ms total)
T22A4 007:870 JLINK_IsHalted()  returns TRUE (0000ms, 0726ms total)
T22A4 007:870 JLINK_IsHalted()  returns TRUE (0000ms, 0726ms total)
T22A4 007:870 JLINK_IsHalted()  returns TRUE (0000ms, 0726ms total)
T22A4 007:870 JLINK_ReadReg(R15 (PC))  returns 0x00024C48 (0000ms, 0726ms total)
T22A4 007:870 JLINK_ReadReg(XPSR)  returns 0x61000000 (0000ms, 0726ms total)
T22A4 007:870 JLINK_ClrBPEx(BPHandle = 0x00000005)  returns 0x00 (0000ms, 0726ms total)
T22A4 007:870 JLINK_ReadMemU32(0xE000ED30, 0x0001 Items, ...) -- CPU_ReadMem(4 bytes @ 0xE000ED30) - Data: 02 00 00 00  returns 0x01 (0002ms, 0728ms total)
T22A4 007:872 JLINK_ReadMemU32(0xE0001028, 0x0001 Items, ...) -- CPU_ReadMem(4 bytes @ 0xE0001028) - Data: 00 00 00 00  returns 0x01 (0001ms, 0729ms total)
T22A4 007:873 JLINK_ReadMemU32(0xE0001038, 0x0001 Items, ...) -- CPU_ReadMem(4 bytes @ 0xE0001038) - Data: 00 02 00 00  returns 0x01 (0000ms, 0729ms total)
T22A4 007:873 JLINK_ReadMemU32(0xE0001048, 0x0001 Items, ...) -- CPU_ReadMem(4 bytes @ 0xE0001048) - Data: 00 00 00 00  returns 0x01 (0001ms, 0730ms total)
T22A4 007:874 JLINK_ReadMemU32(0xE0001058, 0x0001 Items, ...) -- CPU_ReadMem(4 bytes @ 0xE0001058) - Data: 00 00 00 00  returns 0x01 (0000ms, 0730ms total)
T22A4 007:874 JLINK_ReadReg(R0)  returns 0x00000000 (0000ms, 0730ms total)
T22A4 007:874 JLINK_ReadReg(R1)  returns 0x00000004 (0000ms, 0730ms total)
T22A4 007:874 JLINK_ReadReg(R2)  returns 0x00000000 (0000ms, 0730ms total)
T22A4 007:874 JLINK_ReadReg(R3)  returns 0x00000000 (0000ms, 0730ms total)
T22A4 007:874 JLINK_ReadReg(R4)  returns 0x00000000 (0000ms, 0730ms total)
T22A4 007:874 JLINK_ReadReg(R5)  returns 0x00000000 (0000ms, 0730ms total)
T22A4 007:874 JLINK_ReadReg(R6)  returns 0x200027E0 (0000ms, 0730ms total)
T22A4 007:874 JLINK_ReadReg(R7)  returns 0x00000000 (0000ms, 0730ms total)
T22A4 007:874 JLINK_ReadReg(R8)  returns 0x00000000 (0000ms, 0730ms total)
T22A4 007:874 JLINK_ReadReg(R9)  returns 0x00000000 (0000ms, 0730ms total)
T22A4 007:874 JLINK_ReadReg(R10)  returns 0x00000000 (0000ms, 0730ms total)
T22A4 007:874 JLINK_ReadReg(R11)  returns 0x00000000 (0000ms, 0730ms total)
T22A4 007:874 JLINK_ReadReg(R12)  returns 0x20003400 (0000ms, 0730ms total)
T22A4 007:874 JLINK_ReadReg(R13 (SP))  returns 0x200054D0 (0000ms, 0730ms total)
T22A4 007:874 JLINK_ReadReg(R14)  returns 0x00029311 (0001ms, 0731ms total)
T22A4 007:875 JLINK_ReadReg(R15 (PC))  returns 0x00024C48 (0000ms, 0731ms total)
T22A4 007:875 JLINK_ReadReg(XPSR)  returns 0x61000000 (0000ms, 0731ms total)
T22A4 007:875 JLINK_ReadReg(MSP)  returns 0x200054D0 (0000ms, 0731ms total)
T22A4 007:875 JLINK_ReadReg(PSP)  returns 0x00000000 (0000ms, 0731ms total)
T22A4 007:875 JLINK_ReadReg(CFBP)  returns 0x00000000 (0000ms, 0731ms total)
T22A4 007:875 JLINK_ReadReg(FPSCR)  returns 0x00000000 (0010ms, 0741ms total)
T22A4 007:885 JLINK_ReadReg(FPS0)  returns 0x00000000 (0001ms, 0742ms total)
T22A4 007:886 JLINK_ReadReg(FPS1)  returns 0x00000000 (0000ms, 0742ms total)
T22A4 007:886 JLINK_ReadReg(FPS2)  returns 0x00000000 (0000ms, 0742ms total)
T22A4 007:886 JLINK_ReadReg(FPS3)  returns 0x00000000 (0000ms, 0742ms total)
T22A4 007:886 JLINK_ReadReg(FPS4)  returns 0x00000000 (0000ms, 0742ms total)
T22A4 007:886 JLINK_ReadReg(FPS5)  returns 0x00000000 (0000ms, 0742ms total)
T22A4 007:886 JLINK_ReadReg(FPS6)  returns 0x00000000 (0000ms, 0742ms total)
T22A4 007:886 JLINK_ReadReg(FPS7)  returns 0x00000000 (0000ms, 0742ms total)
T22A4 007:886 JLINK_ReadReg(FPS8)  returns 0x00000000 (0000ms, 0742ms total)
T22A4 007:886 JLINK_ReadReg(FPS9)  returns 0x00000000 (0000ms, 0742ms total)
T22A4 007:886 JLINK_ReadReg(FPS10)  returns 0x00000000 (0000ms, 0742ms total)
T22A4 007:886 JLINK_ReadReg(FPS11)  returns 0x00000000 (0000ms, 0742ms total)
T22A4 007:886 JLINK_ReadReg(FPS12)  returns 0x00000000 (0000ms, 0742ms total)
T22A4 007:886 JLINK_ReadReg(FPS13)  returns 0x00000000 (0000ms, 0742ms total)
T22A4 007:886 JLINK_ReadReg(FPS14)  returns 0x00000000 (0000ms, 0742ms total)
T22A4 007:886 JLINK_ReadReg(FPS15)  returns 0x00000000 (0000ms, 0742ms total)
T22A4 007:886 JLINK_ReadReg(FPS16)  returns 0x00000000 (0000ms, 0742ms total)
T22A4 007:886 JLINK_ReadReg(FPS17)  returns 0x00000000 (0000ms, 0742ms total)
T22A4 007:886 JLINK_ReadReg(FPS18)  returns 0x00000000 (0000ms, 0742ms total)
T22A4 007:886 JLINK_ReadReg(FPS19)  returns 0x00000000 (0000ms, 0742ms total)
T22A4 007:886 JLINK_ReadReg(FPS20)  returns 0x00000000 (0000ms, 0742ms total)
T22A4 007:886 JLINK_ReadReg(FPS21)  returns 0x00000000 (0000ms, 0742ms total)
T22A4 007:886 JLINK_ReadReg(FPS22)  returns 0x00000000 (0000ms, 0742ms total)
T22A4 007:887 JLINK_ReadReg(FPS23)  returns 0x00000000 (0000ms, 0743ms total)
T22A4 007:887 JLINK_ReadReg(FPS24)  returns 0x00000000 (0000ms, 0743ms total)
T22A4 007:887 JLINK_ReadReg(FPS25)  returns 0x00000000 (0000ms, 0743ms total)
T22A4 007:887 JLINK_ReadReg(FPS26)  returns 0x00000000 (0000ms, 0743ms total)
T22A4 007:887 JLINK_ReadReg(FPS27)  returns 0x00000000 (0000ms, 0743ms total)
T22A4 007:887 JLINK_ReadReg(FPS28)  returns 0x00000000 (0000ms, 0743ms total)
T22A4 007:887 JLINK_ReadReg(FPS29)  returns 0x00000000 (0000ms, 0743ms total)
T22A4 007:887 JLINK_ReadReg(FPS30)  returns 0x00000000 (0000ms, 0743ms total)
T22A4 007:887 JLINK_ReadReg(FPS31)  returns 0x00000000 (0000ms, 0743ms total)
T1698 007:887 JLINK_ReadMem (0x20005954, 0x0001 Bytes, ...) -- CPU_ReadMem(64 bytes @ 0x20005940) -- Updating C cache (64 bytes @ 0x20005940) -- Read from C cache (1 bytes @ 0x20005954) - Data: 00  returns 0x00 (0002ms, 0745ms total)
T1698 007:889 JLINK_ReadMem (0x00000000, 0x0001 Bytes, ...) -- CPU_ReadMem(64 bytes @ 0x00000000) -- Updating C cache (64 bytes @ 0x00000000) -- Read from C cache (1 bytes @ 0x00000000) - Data: 00  returns 0x00 (0001ms, 0746ms total)
T1698 007:890 JLINK_ReadMem (0x200054D4, 0x0020 Bytes, ...) -- CPU_ReadMem(64 bytes @ 0x200054C0) -- Updating C cache (64 bytes @ 0x200054C0) -- Read from C cache (32 bytes @ 0x200054D4) - Data: 00 00 00 00 00 00 00 00 00 00 00 00 00 00 00 00 ...  returns 0x00 (0002ms, 0748ms total)
T1698 007:892 JLINK_ReadMem (0x00000000, 0x0004 Bytes, ...) -- Read from C cache (4 bytes @ 0x00000000) - Data: 00 04 00 20  returns 0x00 (0000ms, 0748ms total)
T1698 007:892 JLINK_ReadMemU32(0xE0001004, 0x0001 Items, ...) -- CPU_ReadMem(4 bytes @ 0xE0001004) - Data: D5 45 B3 03  returns 0x01 (0001ms, 0749ms total)
T1698 007:894 JLINK_ReadMem (0x200054D4, 0x0286 Bytes, ...) -- CPU_ReadMem(640 bytes @ 0x20005500) -- Updating C cache (640 bytes @ 0x20005500) -- Read from C cache (646 bytes @ 0x200054D4) - Data: 00 00 00 00 00 00 00 00 00 00 00 00 00 00 00 00 ...  returns 0x00 (0009ms, 0758ms total)
T1698 010:270 JLINK_SetResetType(JLINKARM_RESET_TYPE_NORMAL)  returns JLINKARM_RESET_TYPE_NORMAL (0000ms, 0758ms total)
T1698 010:270 JLINK_Reset() -- CPU_WriteMem(4 bytes @ 0xE000EDF0) -- CPU_WriteMem(4 bytes @ 0xE000EDFC) >0x35 TIF> -- CPU_WriteMem(4 bytes @ 0xE000ED0C) -- CPU_ReadMem(4 bytes @ 0xE000EDF0) -- CPU_ReadMem(4 bytes @ 0xE000EDF0) -- CPU_WriteMem(4 bytes @ 0xE000EDF0) -- CPU_WriteMem(4 bytes @ 0xE000EDFC) -- CPU is running -- CPU_ReadMem(4 bytes @ 0xE000EDF0) -- CPU_WriteMem(4 bytes @ 0xE0002000) -- CPU_ReadMem(4 bytes @ 0xE000EDFC) -- CPU_ReadMem(4 bytes @ 0xE0001000) (0022ms, 0780ms total)
T1698 010:292 JLINK_ReadReg(R15 (PC))  returns 0x000008E4 (0000ms, 0780ms total)
T1698 010:292 JLINK_ReadReg(XPSR)  returns 0x01000000 (0000ms, 0780ms total)
T1698 010:292 JLINK_ReadMemU32(0xE0001004, 0x0001 Items, ...) -- CPU_ReadMem(4 bytes @ 0xE0001004) - Data: DD 45 B3 03  returns 0x01 (0000ms, 0780ms total)
T1698 010:295 JLINK_ReadMem (0x000008E4, 0x003C Bytes, ...) -- CPU_ReadMem(128 bytes @ 0x000008C0) -- Updating C cache (128 bytes @ 0x000008C0) -- Read from C cache (60 bytes @ 0x000008E4) - Data: 06 4B 18 47 06 4A 10 60 01 68 81 F3 08 88 40 68 ...  returns 0x00 (0002ms, 0782ms total)
T22A4 011:512 JLINK_Go() -- CPU_ReadMem(4 bytes @ 0xE0001000) -- CPU_WriteMem(4 bytes @ 0xE0002008) -- CPU_WriteMem(4 bytes @ 0xE000200C) -- CPU_WriteMem(4 bytes @ 0xE0002010) -- CPU_WriteMem(4 bytes @ 0xE0002014) -- CPU_WriteMem(4 bytes @ 0xE0002018) -- CPU_WriteMem(4 bytes @ 0xE000201C) -- CPU_WriteMem(4 bytes @ 0xE0001004) (0006ms, 0788ms total)
T22A4 011:618 JLINK_IsHalted()  returns FALSE (0000ms, 0788ms total)
T22A4 011:719 JLINK_IsHalted()  returns FALSE (0000ms, 0788ms total)
T22A4 011:821 JLINK_IsHalted()  returns FALSE (0000ms, 0788ms total)
T22A4 011:922 JLINK_IsHalted()  returns FALSE (0000ms, 0788ms total)
T22A4 012:023 JLINK_IsHalted()  returns FALSE (0000ms, 0788ms total)
T22A4 012:124 JLINK_IsHalted()  returns FALSE (0000ms, 0788ms total)
T22A4 012:225 JLINK_IsHalted()  returns FALSE (0000ms, 0788ms total)
T22A4 012:326 JLINK_IsHalted()  returns FALSE (0000ms, 0788ms total)
T22A4 012:427 JLINK_IsHalted()  returns FALSE (0000ms, 0788ms total)
T22A4 012:528 JLINK_IsHalted()  returns FALSE (0001ms, 0789ms total)
T22A4 012:629 JLINK_IsHalted()  returns FALSE (0000ms, 0788ms total)
T22A4 012:730 JLINK_IsHalted()  returns FALSE (0001ms, 0789ms total)
T22A4 012:831 JLINK_IsHalted()  returns FALSE (0001ms, 0789ms total)
T22A4 012:932 JLINK_IsHalted()  returns FALSE (0000ms, 0788ms total)
T22A4 013:034 JLINK_IsHalted()  returns FALSE (0000ms, 0788ms total)
T22A4 013:134 JLINK_IsHalted()  returns FALSE (0001ms, 0789ms total)
T22A4 013:236 JLINK_IsHalted()  returns FALSE (0000ms, 0788ms total)
T22A4 013:337 JLINK_IsHalted()  returns FALSE (0000ms, 0788ms total)
T22A4 013:438 JLINK_IsHalted()  returns FALSE (0000ms, 0788ms total)
T22A4 013:539 JLINK_IsHalted()  returns FALSE (0000ms, 0788ms total)
T22A4 013:640 JLINK_IsHalted()  returns FALSE (0000ms, 0788ms total)
T22A4 013:741 JLINK_IsHalted()  returns FALSE (0000ms, 0788ms total)
T22A4 013:841 JLINK_IsHalted()  returns FALSE (0000ms, 0788ms total)
T22A4 013:943 JLINK_IsHalted()  returns FALSE (0001ms, 0789ms total)
T22A4 014:044 JLINK_IsHalted()  returns FALSE (0000ms, 0788ms total)
T22A4 014:145 JLINK_IsHalted()  returns FALSE (0000ms, 0788ms total)
T22A4 014:246 JLINK_IsHalted()  returns FALSE (0000ms, 0788ms total)
T22A4 014:347 JLINK_IsHalted()  returns FALSE (0001ms, 0789ms total)
T22A4 014:448 JLINK_IsHalted()  returns FALSE (0000ms, 0788ms total)
T22A4 014:549 JLINK_IsHalted()  returns FALSE (0000ms, 0788ms total)
T22A4 014:649 JLINK_IsHalted()  returns FALSE (0001ms, 0789ms total)
T22A4 014:750 JLINK_IsHalted()  returns FALSE (0001ms, 0789ms total)
T22A4 014:851 JLINK_IsHalted()  returns FALSE (0000ms, 0788ms total)
T22A4 014:952 JLINK_IsHalted()  returns FALSE (0000ms, 0788ms total)
T22A4 015:054 JLINK_IsHalted()  returns FALSE (0000ms, 0788ms total)
T22A4 015:155 JLINK_IsHalted()  returns FALSE (0001ms, 0789ms total)
T22A4 015:256 JLINK_IsHalted()  returns FALSE (0001ms, 0789ms total)
T22A4 015:357 JLINK_IsHalted()  returns FALSE (0001ms, 0789ms total)
T22A4 015:458 JLINK_IsHalted()  returns FALSE (0001ms, 0789ms total)
T22A4 015:559 JLINK_IsHalted()  returns FALSE (0001ms, 0789ms total)
T22A4 015:660 JLINK_IsHalted()  returns FALSE (0001ms, 0789ms total)
T22A4 015:761 JLINK_IsHalted()  returns FALSE (0001ms, 0789ms total)
T22A4 015:862 JLINK_IsHalted()  returns FALSE (0001ms, 0789ms total)
T22A4 015:963 JLINK_IsHalted()  returns FALSE (0000ms, 0788ms total)
T22A4 016:064 JLINK_IsHalted()  returns FALSE (0000ms, 0788ms total)
T22A4 016:165 JLINK_IsHalted()  returns FALSE (0000ms, 0788ms total)
T22A4 016:266 JLINK_IsHalted()  returns FALSE (0000ms, 0788ms total)
T22A4 016:367 JLINK_IsHalted()  returns FALSE (0000ms, 0788ms total)
T22A4 016:467 JLINK_IsHalted()  returns FALSE (0001ms, 0789ms total)
T22A4 016:568 JLINK_IsHalted()  returns FALSE (0001ms, 0789ms total)
T22A4 016:669 JLINK_IsHalted()  returns FALSE (0000ms, 0788ms total)
T22A4 016:770 JLINK_IsHalted()  returns FALSE (0000ms, 0788ms total)
T22A4 016:871 JLINK_IsHalted()  returns FALSE (0000ms, 0788ms total)
T22A4 016:972 JLINK_IsHalted()  returns FALSE (0000ms, 0788ms total)
T22A4 017:073 JLINK_IsHalted()  returns FALSE (0000ms, 0788ms total)
T22A4 017:173 JLINK_IsHalted()  returns FALSE (0001ms, 0789ms total)
T22A4 017:274 JLINK_IsHalted()  returns FALSE (0001ms, 0789ms total)
T22A4 017:375 JLINK_IsHalted()  returns FALSE (0001ms, 0789ms total)
T22A4 017:476 JLINK_IsHalted()  returns FALSE (0001ms, 0789ms total)
T22A4 017:577 JLINK_IsHalted()  returns FALSE (0000ms, 0788ms total)
T22A4 017:678 JLINK_IsHalted()  returns FALSE (0000ms, 0788ms total)
T22A4 017:779 JLINK_IsHalted()  returns FALSE (0000ms, 0788ms total)
T22A4 017:879 JLINK_IsHalted()  returns FALSE (0001ms, 0789ms total)
T22A4 017:980 JLINK_IsHalted()  returns FALSE (0001ms, 0789ms total)
T22A4 018:082 JLINK_IsHalted()  returns FALSE (0000ms, 0788ms total)
T22A4 018:183 JLINK_IsHalted()  returns FALSE (0000ms, 0788ms total)
T22A4 018:283 JLINK_IsHalted()  returns FALSE (0001ms, 0789ms total)
T22A4 018:384 JLINK_IsHalted()  returns FALSE (0001ms, 0789ms total)
T22A4 018:485 JLINK_IsHalted()  returns FALSE (0000ms, 0788ms total)
T22A4 018:586 JLINK_IsHalted()  returns FALSE (0000ms, 0788ms total)
T22A4 018:687 JLINK_IsHalted()  returns FALSE (0001ms, 0789ms total)
T22A4 018:788 JLINK_IsHalted()  returns FALSE (0001ms, 0789ms total)
T22A4 018:889 JLINK_IsHalted()  returns FALSE (0000ms, 0788ms total)
T22A4 018:990 JLINK_IsHalted()  returns FALSE (0000ms, 0788ms total)
T22A4 019:092 JLINK_IsHalted()  returns FALSE (0001ms, 0789ms total)
T22A4 019:193 JLINK_IsHalted()  returns FALSE (0000ms, 0788ms total)
T22A4 019:294 JLINK_IsHalted()  returns FALSE (0000ms, 0788ms total)
T22A4 019:395 JLINK_IsHalted()  returns FALSE (0000ms, 0788ms total)
T22A4 019:497 JLINK_IsHalted()  returns FALSE (0000ms, 0788ms total)
T22A4 019:597 JLINK_IsHalted()  returns FALSE (0000ms, 0788ms total)
T22A4 019:698 JLINK_IsHalted()  returns FALSE (0000ms, 0788ms total)
T22A4 019:800 JLINK_IsHalted()  returns FALSE (0000ms, 0788ms total)
T22A4 019:901 JLINK_IsHalted()  returns FALSE (0000ms, 0788ms total)
T22A4 020:003 JLINK_IsHalted()  returns FALSE (0000ms, 0788ms total)
T22A4 020:104 JLINK_IsHalted()  returns FALSE (0001ms, 0789ms total)
T22A4 020:205 JLINK_IsHalted()  returns FALSE (0001ms, 0789ms total)
T22A4 020:307 JLINK_IsHalted()  returns FALSE (0000ms, 0788ms total)
T22A4 020:408 JLINK_IsHalted()  returns FALSE (0001ms, 0789ms total)
T22A4 020:509 JLINK_IsHalted()  returns FALSE (0001ms, 0789ms total)
T22A4 020:611 JLINK_IsHalted()  returns FALSE (0000ms, 0788ms total)
T22A4 020:711 JLINK_IsHalted()  returns FALSE (0001ms, 0789ms total)
T22A4 020:813 JLINK_IsHalted()  returns FALSE (0001ms, 0789ms total)
T22A4 020:914 JLINK_IsHalted()  returns FALSE (0001ms, 0789ms total)
T22A4 021:015 JLINK_IsHalted()  returns FALSE (0001ms, 0789ms total)
T22A4 021:116 JLINK_IsHalted()  returns FALSE (0001ms, 0789ms total)
T22A4 021:218 JLINK_IsHalted()  returns FALSE (0000ms, 0788ms total)
T22A4 021:319 JLINK_IsHalted()  returns FALSE (0000ms, 0788ms total)
T22A4 021:420 JLINK_IsHalted()  returns FALSE (0000ms, 0788ms total)
T22A4 021:521 JLINK_IsHalted()  returns FALSE (0001ms, 0789ms total)
T22A4 021:622 JLINK_IsHalted()  returns FALSE (0001ms, 0789ms total)
